
T0784 000:064 SEGGER J-Link V6.10i Log File (0000ms, 0021ms total)
T0784 000:064 DLL Compiled: Oct 25 2016 19:31:51 (0000ms, 0021ms total)
T0784 000:064 Logging started @ 2018-05-08 21:52 (0000ms, 0021ms total)
T0784 000:064 JLINK_SetWarnOutHandler(...) (0000ms, 0021ms total)
T0784 000:064 JLINK_OpenEx(...)
Firmware: J-Link ARM-OB STM32 compiled Aug 22 2012 19:52:04
Hardware: V7.00
S/N: 20170306
Feature(s): RDI,FlashDL,FlashBP,JFlash,GDBFullWEBSRV Webserver running on local port 19080 (0012ms, 0033ms total)
T0784 000:064   returns O.K. (0012ms, 0033ms total)
T0784 000:076 JLINK_SetErrorOutHandler(...) (0000ms, 0033ms total)
T0784 000:076 JLINK_ExecCommand("ProjectFile = "G:\Work\Electronic\Keil\Voltage Relay_sens\MDK-ARM\JLinkSettings.ini"", ...). Device "STM32F071CB" selected.  returns 0x00 (0093ms, 0126ms total)
T0784 000:169 JLINK_ExecCommand("Device = STM32F071CBTx", ...). Device "STM32F071CB" selected.  returns 0x00 (0001ms, 0127ms total)
T0784 000:170 JLINK_ExecCommand("DisableConnectionTimeout", ...).   returns 0x01 (0000ms, 0127ms total)
T0784 000:170 JLINK_GetHardwareVersion()  returns 0x11170 (0000ms, 0127ms total)
T0784 000:170 JLINK_GetDLLVersion()  returns 61009 (0000ms, 0127ms total)
T0784 000:170 JLINK_GetFirmwareString(...) (0000ms, 0127ms total)
T0784 000:170 JLINK_GetDLLVersion()  returns 61009 (0000ms, 0127ms total)
T0784 000:170 JLINK_GetCompileDateTime() (0000ms, 0127ms total)
T0784 000:170 JLINK_GetFirmwareString(...) (0000ms, 0127ms total)
T0784 000:170 JLINK_GetHardwareVersion()  returns 0x11170 (0000ms, 0127ms total)
T0784 000:170 JLINK_TIF_Select(JLINKARM_TIF_SWD)  returns 0x00 (0002ms, 0129ms total)
T0784 000:172 JLINK_SetSpeed(5000) (0000ms, 0129ms total)
T0784 000:172 JLINK_GetId() >0x108 TIF>Found SWD-DP with ID 0x0BB11477 >0x0D TIF> >0x28 TIF> >0x0D TIF> >0x28 TIF> >0x0D TIF> >0x28 TIF> >0x0D TIF> >0x28 TIF> >0x0D TIF> >0x21 TIF> >0x0D TIF> >0x28 TIF> >0x0D TIF> >0x28 TIF> >0x0D TIF> >0x28 TIF> >0x0D TIF> >0x21 TIF> >0x0D TIF> >0x21 TIF> >0x0D TIF> >0x28 TIF> >0x0D TIF> >0x21 TIF> >0x0D TIF> >0x21 TIF> >0x0D TIF> >0x28 TIF> >0x0D TIF> >0x21 TIF> >0x0D TIF> >0x21 TIF> >0x0D TIF> >0x28 TIF> >0x0D TIF> >0x28 TIF> >0x0D TIF> >0x28 TIF> >0x0D TIF>
 >0x21 TIF> >0x0D TIF> >0x21 TIF> >0x0D TIF> >0x28 TIF> >0x0D TIF> >0x28 TIF> >0x0D TIF> >0x28 TIF> >0x0D TIF> >0x21 TIF> >0x0D TIF> >0x21 TIF> >0x0D TIF> >0x28 TIF> >0x0D TIF> >0x21 TIF> >0x0D TIF> >0x21 TIF> >0x0D TIF> >0x28 TIF> >0x0D TIF> >0x21 TIF> >0x0D TIF> >0x21 TIF> >0x0D TIF> >0x28 TIF> >0x0D TIF> >0x21 TIF> >0x0D TIF> >0x21 TIF> >0x0D TIF> >0x28 TIF> >0x0D TIF> >0x21 TIF> >0x0D TIF> >0x21 TIF> >0x0D TIF> >0x28 TIF> >0x0D TIF> >0x21 TIF> >0x0D TIF> >0x21 TIF> >0x108 TIF>
Found SWD-DP with ID 0x0BB11477 >0x0D TIF> >0x28 TIF> >0x0D TIF> >0x28 TIF> >0x0D TIF> >0x28 TIF> >0x0D TIF> >0x28 TIF> >0x0D TIF> >0x21 TIF> >0x0D TIF> >0x28 TIF> >0x0D TIF> >0x28 TIF> >0x0D TIF> >0x21 TIF> >0x0D TIF> >0x21 TIF> >0x0D TIF> >0x21 TIF>AP-IDR: 0x04770021, Type: AHB-AP >0x0D TIF> >0x28 TIF> >0x0D TIF> >0x28 TIF> >0x0D TIF> >0x28 TIF> >0x0D TIF> >0x21 TIF> >0x0D TIF> >0x21 TIF> >0x0D TIF> >0x28 TIF> >0x0D TIF> >0x21 TIF> >0x0D TIF> >0x21 TIF>Found Cortex-M0 r0p0, Little endian.
 -- CPU_ReadMem(4 bytes @ 0xE000EDF0) -- CPU_WriteMem(4 bytes @ 0xE000EDF0) -- CPU_ReadMem(4 bytes @ 0xE0002000)FPUnit: 4 code (BP) slots and 0 literal slots -- CPU_ReadMem(4 bytes @ 0xE000EDFC) -- CPU_WriteMem(4 bytes @ 0xE000EDFC) -- CPU_ReadMem(4 bytes @ 0xE0001000) -- CPU_WriteMem(4 bytes @ 0xE0001000)CoreSight components:ROMTbl 0 @ E00FF000 -- CPU_ReadMem(16 bytes @ 0xE00FF000) -- CPU_ReadMem(16 bytes @ 0xE000EFF0) -- CPU_ReadMem(16 bytes @ 0xE000EFE0)
ROMTbl 0 [0]: FFF0F000, CID: B105E00D, PID: 000BB008 SCS -- CPU_ReadMem(16 bytes @ 0xE0001FF0) -- CPU_ReadMem(16 bytes @ 0xE0001FE0)ROMTbl 0 [1]: FFF02000, CID: B105E00D, PID: 000BB00A DWT -- CPU_ReadMem(16 bytes @ 0xE0002FF0) -- CPU_ReadMem(16 bytes @ 0xE0002FE0)ROMTbl 0 [2]: FFF03000, CID: B105E00D, PID: 000BB00B FPB -- CPU is running -- CPU_WriteMem(4 bytes @ 0xE000EDF0) -- CPU is running -- CPU_WriteMem(4 bytes @ 0xE000EDFC) >0x35 TIF> -- CPU is running -- CPU_WriteMem(4 bytes @ 0xE000ED0C)
 -- CPU is running -- CPU_ReadMem(4 bytes @ 0xE000EDF0) -- CPU is running -- CPU_ReadMem(4 bytes @ 0xE000EDF0) -- CPU is running -- CPU_WriteMem(4 bytes @ 0xE000EDF0) -- CPU is running -- CPU_WriteMem(4 bytes @ 0xE000EDFC) -- CPU is running -- CPU_ReadMem(4 bytes @ 0xE000EDF0) -- CPU_WriteMem(4 bytes @ 0xE0002000) -- CPU_ReadMem(4 bytes @ 0xE000EDFC) -- CPU_ReadMem(4 bytes @ 0xE0001000) -- CPU_WriteMem(4 bytes @ 0xE0001000) -- CPU_WriteMem(16384 bytes @ 0x20000000) >0x0D TIF> >0x21 TIF>
  returns 0x0BB11477 (0275ms, 0404ms total)
T0784 000:447 JLINK_GetDLLVersion()  returns 61009 (0000ms, 0404ms total)
T0784 000:447 JLINK_CORE_GetFound()  returns 0x60000FF (0000ms, 0404ms total)
T0784 000:447 JLINK_GetDebugInfo(0x100) -- Value=0xE00FF000  returns 0x00 (0000ms, 0404ms total)
T0784 000:447 JLINK_GetDebugInfo(0x100) -- Value=0xE00FF000  returns 0x00 (0000ms, 0404ms total)
T0784 000:447 JLINK_GetDebugInfo(0x101) -- Value=0x00000000  returns 0x00 (0000ms, 0404ms total)
T0784 000:447 JLINK_ReadMem (0xE0041FF0, 0x0010 Bytes, ...) -- CPU_ReadMem(16 bytes @ 0xE0041FF0) - Data: 00 00 00 00 00 00 00 00 00 00 00 00 00 00 00 00  returns 0x00 (0001ms, 0405ms total)
T0784 000:448 JLINK_GetDebugInfo(0x102) -- Value=0x00000000  returns 0x00 (0000ms, 0405ms total)
T0784 000:448 JLINK_GetDebugInfo(0x103) -- Value=0x00000000  returns 0x00 (0000ms, 0405ms total)
T0784 000:448 JLINK_ReadMem (0xE0040FF0, 0x0010 Bytes, ...) -- CPU_ReadMem(16 bytes @ 0xE0040FF0) - Data: 00 00 00 00 00 00 00 00 00 00 00 00 00 00 00 00  returns 0x00 (0001ms, 0406ms total)
T0784 000:449 JLINK_GetDebugInfo(0x104) -- Value=0xE0000000  returns 0x00 (0000ms, 0406ms total)
T0784 000:449 JLINK_GetDebugInfo(0x105) -- Value=0xE0001000  returns 0x00 (0000ms, 0406ms total)
T0784 000:449 JLINK_GetDebugInfo(0x106) -- Value=0xE0002000  returns 0x00 (0000ms, 0406ms total)
T0784 000:449 JLINK_GetDebugInfo(0x107) -- Value=0xE000E000  returns 0x00 (0000ms, 0406ms total)
T0784 000:449 JLINK_GetDebugInfo(0x10C) -- Value=0xE000EDF0  returns 0x00 (0000ms, 0406ms total)
T0784 000:449 JLINK_ReadMemU32(0xE000ED00, 0x0001 Items, ...) -- CPU_ReadMem(4 bytes @ 0xE000ED00) - Data: 00 C2 0C 41  returns 0x01 (0001ms, 0407ms total)
T0784 000:450 JLINK_SetResetType(JLINKARM_RESET_TYPE_NORMAL)  returns JLINKARM_RESET_TYPE_NORMAL (0000ms, 0407ms total)
T0784 000:450 JLINK_Reset() -- CPU_ReadMem(4 bytes @ 0x20000000) -- CPU_WriteMem(4 bytes @ 0x20000000) -- CPU_WriteMem(4 bytes @ 0xE000EDF0) -- CPU_WriteMem(4 bytes @ 0xE000EDFC) >0x35 TIF> -- CPU_WriteMem(4 bytes @ 0xE000ED0C) -- CPU_ReadMem(4 bytes @ 0xE000EDF0) -- CPU_ReadMem(4 bytes @ 0xE000EDF0) -- CPU_WriteMem(4 bytes @ 0xE000EDF0) -- CPU_WriteMem(4 bytes @ 0xE000EDFC) -- CPU is running -- CPU_ReadMem(4 bytes @ 0xE000EDF0) -- CPU_WriteMem(4 bytes @ 0xE0002000) -- CPU_ReadMem(4 bytes @ 0xE000EDFC)
 -- CPU_ReadMem(4 bytes @ 0xE0001000) -- CPU_WriteMem(4 bytes @ 0xE0001000) (0025ms, 0432ms total)
T0784 000:475 JLINK_ReadReg(R15 (PC))  returns 0x0800018C (0000ms, 0432ms total)
T0784 000:475 JLINK_ReadReg(XPSR)  returns 0xC1000000 (0000ms, 0432ms total)
T0784 000:475 JLINK_Halt()  returns 0x00 (0000ms, 0432ms total)
T0784 000:475 JLINK_IsHalted()  returns TRUE (0000ms, 0432ms total)
T0784 000:475 JLINK_ReadMemU32(0xE000EDF0, 0x0001 Items, ...) -- CPU_ReadMem(4 bytes @ 0xE000EDF0) - Data: 03 00 03 00  returns 0x01 (0001ms, 0433ms total)
T0784 000:476 JLINK_WriteU32(0xE000EDF0, 0xA05F0003) -- CPU_WriteMem(4 bytes @ 0xE000EDF0)  returns 0x00 (0001ms, 0434ms total)
T0784 000:477 JLINK_WriteU32(0xE000EDFC, 0x01000000) -- CPU_WriteMem(4 bytes @ 0xE000EDFC)  returns 0x00 (0001ms, 0435ms total)
T0784 000:478 JLINK_GetHWStatus(...)  returns 0x00 (0000ms, 0435ms total)
T0784 000:478 JLINK_GetNumBPUnits(Type = 0xFFFFFF00)  returns 0x04 (0000ms, 0435ms total)
T0784 000:478 JLINK_GetNumBPUnits(Type = 0xF0)  returns 0x2000 (0000ms, 0435ms total)
T0784 000:479 JLINK_GetNumWPUnits()  returns 0x02 (0000ms, 0435ms total)
T0784 000:479 JLINK_GetSpeed()  returns 0xFA0 (0000ms, 0435ms total)
T0784 000:479 JLINK_ReadMemU32(0xE000E004, 0x0001 Items, ...) -- CPU_ReadMem(4 bytes @ 0xE000E004) - Data: 00 00 00 00  returns 0x01 (0000ms, 0435ms total)
T0784 000:479 JLINK_ReadReg(R15 (PC))  returns 0x0800018C (0000ms, 0435ms total)
T0784 000:479 JLINK_ReadReg(XPSR)  returns 0xC1000000 (0000ms, 0435ms total)
T0784 000:662 JLINK_SetResetType(JLINKARM_RESET_TYPE_NORMAL)  returns JLINKARM_RESET_TYPE_NORMAL (0000ms, 0435ms total)
T0784 000:662 JLINK_Reset() -- CPU_WriteMem(4 bytes @ 0xE000EDF0) -- CPU_WriteMem(4 bytes @ 0xE000EDFC) >0x35 TIF> -- CPU_WriteMem(4 bytes @ 0xE000ED0C) -- CPU_ReadMem(4 bytes @ 0xE000EDF0) -- CPU_ReadMem(4 bytes @ 0xE000EDF0) -- CPU_WriteMem(4 bytes @ 0xE000EDF0) -- CPU_WriteMem(4 bytes @ 0xE000EDFC) -- CPU is running -- CPU_ReadMem(4 bytes @ 0xE000EDF0) -- CPU_WriteMem(4 bytes @ 0xE0002000) -- CPU_ReadMem(4 bytes @ 0xE000EDFC) -- CPU_ReadMem(4 bytes @ 0xE0001000) -- CPU_WriteMem(4 bytes @ 0xE0001000)
 (0023ms, 0458ms total)
T0784 000:685 JLINK_ReadReg(R15 (PC))  returns 0x0800018C (0000ms, 0458ms total)
T0784 000:685 JLINK_ReadReg(XPSR)  returns 0xC1000000 (0000ms, 0458ms total)
T0784 000:843 JLINK_ReadMem (0x0800018C, 0x003C Bytes, ...) -- CPU_ReadMem(128 bytes @ 0x08000180) -- Updating C cache (128 bytes @ 0x08000180) -- Read from C cache (60 bytes @ 0x0800018C) - Data: 07 48 80 47 07 48 00 47 FE E7 FE E7 FE E7 FE E7 ...  returns 0x00 (0002ms, 0460ms total)
T0784 000:917 JLINK_ReadMem (0x40022000, 0x0004 Bytes, ...) -- CPU_ReadMem(4 bytes @ 0x40022000) - Data: 00 00 00 00  returns 0x00 (0002ms, 0462ms total)
T0784 000:919 JLINK_ReadMem (0x4002200C, 0x0004 Bytes, ...) -- CPU_ReadMem(4 bytes @ 0x4002200C) - Data: 00 00 00 00  returns 0x00 (0000ms, 0462ms total)
T0784 000:919 JLINK_ReadMem (0x40022010, 0x0004 Bytes, ...) -- CPU_ReadMem(4 bytes @ 0x40022010) - Data: 80 00 00 00  returns 0x00 (0001ms, 0463ms total)
T0784 000:920 JLINK_ReadMem (0x4002201C, 0x0004 Bytes, ...) -- CPU_ReadMem(4 bytes @ 0x4002201C) - Data: 00 FF FF FF  returns 0x00 (0000ms, 0463ms total)
T0784 000:920 JLINK_ReadMem (0x40022020, 0x0004 Bytes, ...) -- CPU_ReadMem(4 bytes @ 0x40022020) - Data: FF FF FF FF  returns 0x00 (0002ms, 0465ms total)
T0784 000:951 JLINK_ReadMem (0x40007000, 0x0004 Bytes, ...) -- CPU_ReadMem(4 bytes @ 0x40007000) - Data: 00 00 00 00  returns 0x00 (0000ms, 0465ms total)
T0784 000:952 JLINK_ReadMem (0x40007004, 0x0004 Bytes, ...) -- CPU_ReadMem(4 bytes @ 0x40007004) - Data: 08 00 00 00  returns 0x00 (0000ms, 0465ms total)
T0784 000:982 JLINK_ReadMem (0x40021000, 0x0034 Bytes, ...) -- CPU_ReadMem(52 bytes @ 0x40021000) - Data: 83 57 00 00 00 00 00 00 00 00 00 00 00 00 00 00 ...  returns 0x00 (0001ms, 0466ms total)
T0784 000:983 JLINK_ReadMem (0x40021034, 0x0004 Bytes, ...) -- CPU_ReadMem(4 bytes @ 0x40021034) - Data: 80 75 00 89  returns 0x00 (0000ms, 0466ms total)
T0784 001:012 JLINK_ReadMem (0x40010000, 0x0004 Bytes, ...) -- CPU_ReadMem(4 bytes @ 0x40010000) - Data: 00 00 00 00  returns 0x00 (0001ms, 0467ms total)
T0784 001:013 JLINK_ReadMem (0x40010008, 0x0010 Bytes, ...) -- CPU_ReadMem(16 bytes @ 0x40010008) - Data: 00 00 00 00 00 00 00 00 00 00 00 00 00 00 00 00  returns 0x00 (0001ms, 0468ms total)
T0784 001:014 JLINK_ReadMem (0x40010018, 0x0004 Bytes, ...) -- CPU_ReadMem(4 bytes @ 0x40010018) - Data: 00 00 00 00  returns 0x00 (0000ms, 0468ms total)
T0784 001:045 JLINK_ReadMem (0x40012C00, 0x0010 Bytes, ...) -- CPU_ReadMem(16 bytes @ 0x40012C00) - Data: 00 00 00 00 00 00 00 00 00 00 00 00 00 00 00 00  returns 0x00 (0001ms, 0469ms total)
T0784 001:046 JLINK_ReadMem (0x40012C10, 0x0004 Bytes, ...) -- CPU_ReadMem(4 bytes @ 0x40012C10) - Data: 00 00 00 00  returns 0x00 (0000ms, 0469ms total)
T0784 001:046 JLINK_ReadMem (0x40012C18, 0x0034 Bytes, ...) -- CPU_ReadMem(52 bytes @ 0x40012C18) - Data: 00 00 00 00 00 00 00 00 00 00 00 00 00 00 00 00 ...  returns 0x00 (0001ms, 0470ms total)
T0784 001:047 JLINK_ReadMem (0x40012C4C, 0x0004 Bytes, ...) -- CPU_ReadMem(4 bytes @ 0x40012C4C) - Data: 00 00 00 00  returns 0x00 (0001ms, 0471ms total)
T0784 002:998 JLINK_ReadMem (0x40022000, 0x0004 Bytes, ...) -- CPU_ReadMem(4 bytes @ 0x40022000) - Data: 00 00 00 00  returns 0x00 (0001ms, 0472ms total)
T0784 002:999 JLINK_ReadMem (0x4002200C, 0x0004 Bytes, ...) -- CPU_ReadMem(4 bytes @ 0x4002200C) - Data: 00 00 00 00  returns 0x00 (0001ms, 0473ms total)
T0784 003:000 JLINK_ReadMem (0x40022010, 0x0004 Bytes, ...) -- CPU_ReadMem(4 bytes @ 0x40022010) - Data: 80 00 00 00  returns 0x00 (0000ms, 0473ms total)
T0784 003:000 JLINK_ReadMem (0x4002201C, 0x0004 Bytes, ...) -- CPU_ReadMem(4 bytes @ 0x4002201C) - Data: 00 FF FF FF  returns 0x00 (0001ms, 0474ms total)
T0784 003:001 JLINK_ReadMem (0x40022020, 0x0004 Bytes, ...) -- CPU_ReadMem(4 bytes @ 0x40022020) - Data: FF FF FF FF  returns 0x00 (0001ms, 0475ms total)
T0784 003:002 JLINK_ReadMem (0x40012C00, 0x0010 Bytes, ...) -- CPU_ReadMem(16 bytes @ 0x40012C00) - Data: 00 00 00 00 00 00 00 00 00 00 00 00 00 00 00 00  returns 0x00 (0001ms, 0476ms total)
T0784 003:003 JLINK_ReadMem (0x40012C10, 0x0004 Bytes, ...) -- CPU_ReadMem(4 bytes @ 0x40012C10) - Data: 00 00 00 00  returns 0x00 (0000ms, 0476ms total)
T0784 003:003 JLINK_ReadMem (0x40012C18, 0x0034 Bytes, ...) -- CPU_ReadMem(52 bytes @ 0x40012C18) - Data: 00 00 00 00 00 00 00 00 00 00 00 00 00 00 00 00 ...  returns 0x00 (0002ms, 0478ms total)
T0784 003:005 JLINK_ReadMem (0x40012C4C, 0x0004 Bytes, ...) -- CPU_ReadMem(4 bytes @ 0x40012C4C) - Data: 00 00 00 00  returns 0x00 (0000ms, 0478ms total)
T0784 003:006 JLINK_ReadMem (0x40010000, 0x0004 Bytes, ...) -- CPU_ReadMem(4 bytes @ 0x40010000) - Data: 00 00 00 00  returns 0x00 (0000ms, 0478ms total)
T0784 003:006 JLINK_ReadMem (0x40010008, 0x0010 Bytes, ...) -- CPU_ReadMem(16 bytes @ 0x40010008) - Data: 00 00 00 00 00 00 00 00 00 00 00 00 00 00 00 00  returns 0x00 (0001ms, 0479ms total)
T0784 003:007 JLINK_ReadMem (0x40010018, 0x0004 Bytes, ...) -- CPU_ReadMem(4 bytes @ 0x40010018) - Data: 00 00 00 00  returns 0x00 (0001ms, 0480ms total)
T0784 003:008 JLINK_ReadMem (0x40007000, 0x0004 Bytes, ...) -- CPU_ReadMem(4 bytes @ 0x40007000) - Data: 00 00 00 00  returns 0x00 (0000ms, 0480ms total)
T0784 003:008 JLINK_ReadMem (0x40007004, 0x0004 Bytes, ...) -- CPU_ReadMem(4 bytes @ 0x40007004) - Data: 08 00 00 00  returns 0x00 (0001ms, 0481ms total)
T0784 003:009 JLINK_ReadMem (0x40021000, 0x0034 Bytes, ...) -- CPU_ReadMem(52 bytes @ 0x40021000) - Data: 83 57 00 00 00 00 00 00 00 00 00 00 00 00 00 00 ...  returns 0x00 (0001ms, 0482ms total)
T0784 003:010 JLINK_ReadMem (0x40021034, 0x0004 Bytes, ...) -- CPU_ReadMem(4 bytes @ 0x40021034) - Data: 80 75 00 89  returns 0x00 (0001ms, 0483ms total)
T0784 004:707 JLINK_SetResetType(JLINKARM_RESET_TYPE_NORMAL)  returns JLINKARM_RESET_TYPE_NORMAL (0000ms, 0483ms total)
T0784 004:707 JLINK_Reset() -- CPU_WriteMem(4 bytes @ 0xE000EDF0) -- CPU_WriteMem(4 bytes @ 0xE000EDFC) >0x35 TIF> -- CPU_WriteMem(4 bytes @ 0xE000ED0C) -- CPU_ReadMem(4 bytes @ 0xE000EDF0) -- CPU_ReadMem(4 bytes @ 0xE000EDF0) -- CPU_WriteMem(4 bytes @ 0xE000EDF0) -- CPU_WriteMem(4 bytes @ 0xE000EDFC) -- CPU is running -- CPU_ReadMem(4 bytes @ 0xE000EDF0) -- CPU_WriteMem(4 bytes @ 0xE0002000) -- CPU_ReadMem(4 bytes @ 0xE000EDFC) -- CPU_ReadMem(4 bytes @ 0xE0001000) -- CPU_WriteMem(4 bytes @ 0xE0001000)
 (0024ms, 0507ms total)
T0784 004:731 JLINK_ReadReg(R15 (PC))  returns 0x0800018C (0000ms, 0507ms total)
T0784 004:731 JLINK_ReadReg(XPSR)  returns 0xC1000000 (0000ms, 0507ms total)
T12D4 005:510 JLINK_SetBPEx(Addr = 0x0800385A, Type = 0xFFFFFFF2)  returns 0x00000001 (0000ms, 0507ms total)
T12D4 005:510 JLINK_SetBPEx(Addr = 0x0800157C, Type = 0xFFFFFFF2)  returns 0x00000002 (0000ms, 0507ms total)
T12D4 005:510 JLINK_Go() -- CPU_WriteMem(4 bytes @ 0xE0002000) -- CPU_WriteMem(4 bytes @ 0xE0002000) -- CPU_ReadMem(4 bytes @ 0xE0001000) -- CPU_WriteMem(4 bytes @ 0xE0001000) -- CPU_WriteMem(4 bytes @ 0xE0002008) -- CPU_WriteMem(4 bytes @ 0xE000200C) -- CPU_WriteMem(4 bytes @ 0xE0002010) -- CPU_WriteMem(4 bytes @ 0xE0002014) -- CPU_WriteMem(4 bytes @ 0xE0001004) (0007ms, 0514ms total)
T12D4 005:618 JLINK_IsHalted()  returns TRUE (0004ms, 0518ms total)
T12D4 005:622 JLINK_Halt()  returns 0x00 (0000ms, 0514ms total)
T12D4 005:622 JLINK_IsHalted()  returns TRUE (0000ms, 0514ms total)
T12D4 005:622 JLINK_IsHalted()  returns TRUE (0000ms, 0514ms total)
T12D4 005:622 JLINK_IsHalted()  returns TRUE (0000ms, 0514ms total)
T12D4 005:622 JLINK_ReadReg(R15 (PC))  returns 0x0800157C (0000ms, 0514ms total)
T12D4 005:622 JLINK_ReadReg(XPSR)  returns 0x61000019 (0000ms, 0514ms total)
T12D4 005:622 JLINK_ClrBPEx(BPHandle = 0x00000001)  returns 0x00 (0000ms, 0514ms total)
T12D4 005:622 JLINK_ClrBPEx(BPHandle = 0x00000002)  returns 0x00 (0000ms, 0514ms total)
T12D4 005:622 JLINK_ReadMemU32(0xE000ED30, 0x0001 Items, ...) -- CPU_ReadMem(4 bytes @ 0xE000ED30) - Data: 03 00 00 00  returns 0x01 (0001ms, 0515ms total)
T12D4 005:623 JLINK_ReadMemU32(0xE0001028, 0x0001 Items, ...) -- CPU_ReadMem(4 bytes @ 0xE0001028) - Data: 00 00 00 00  returns 0x01 (0000ms, 0515ms total)
T12D4 005:623 JLINK_ReadMemU32(0xE0001038, 0x0001 Items, ...) -- CPU_ReadMem(4 bytes @ 0xE0001038) - Data: 00 00 00 00  returns 0x01 (0001ms, 0516ms total)
T12D4 005:624 JLINK_ReadReg(R0)  returns 0x00000000 (0000ms, 0516ms total)
T12D4 005:624 JLINK_ReadReg(R1)  returns 0x00000014 (0000ms, 0516ms total)
T12D4 005:624 JLINK_ReadReg(R2)  returns 0x41A00000 (0000ms, 0516ms total)
T12D4 005:624 JLINK_ReadReg(R3)  returns 0x00000000 (0000ms, 0516ms total)
T12D4 005:624 JLINK_ReadReg(R4)  returns 0x40020000 (0000ms, 0516ms total)
T12D4 005:624 JLINK_ReadReg(R5)  returns 0x200006B0 (0000ms, 0516ms total)
T12D4 005:624 JLINK_ReadReg(R6)  returns 0x00000000 (0000ms, 0516ms total)
T12D4 005:624 JLINK_ReadReg(R7)  returns 0x00000000 (0000ms, 0516ms total)
T12D4 005:624 JLINK_ReadReg(R8)  returns 0xFFFFFFFF (0000ms, 0516ms total)
T12D4 005:624 JLINK_ReadReg(R9)  returns 0xFFFFFFFF (0000ms, 0516ms total)
T12D4 005:624 JLINK_ReadReg(R10)  returns 0x08005F2C (0000ms, 0516ms total)
T12D4 005:625 JLINK_ReadReg(R11)  returns 0x08005F2C (0000ms, 0517ms total)
T12D4 005:625 JLINK_ReadReg(R12)  returns 0x00000FFC (0000ms, 0517ms total)
T12D4 005:625 JLINK_ReadReg(R13 (SP))  returns 0x200010D8 (0000ms, 0517ms total)
T12D4 005:625 JLINK_ReadReg(R14)  returns 0x080043BF (0000ms, 0517ms total)
T12D4 005:625 JLINK_ReadReg(R15 (PC))  returns 0x0800157C (0000ms, 0517ms total)
T12D4 005:625 JLINK_ReadReg(XPSR)  returns 0x61000019 (0000ms, 0517ms total)
T12D4 005:625 JLINK_ReadReg(MSP)  returns 0x200010D8 (0000ms, 0517ms total)
T12D4 005:625 JLINK_ReadReg(PSP)  returns 0xFFFFFFFC (0000ms, 0517ms total)
T12D4 005:625 JLINK_ReadReg(CFBP)  returns 0x00000000 (0000ms, 0517ms total)
T0784 005:625 JLINK_ReadMem (0x200010DC, 0x0004 Bytes, ...) -- CPU_ReadMem(64 bytes @ 0x200010C0) -- Updating C cache (64 bytes @ 0x200010C0) -- Read from C cache (4 bytes @ 0x200010DC) - Data: F9 FF FF FF  returns 0x00 (0001ms, 0518ms total)
T0784 005:626 JLINK_ReadMem (0x200010F8, 0x0004 Bytes, ...) -- Read from C cache (4 bytes @ 0x200010F8) - Data: BE 59 00 08  returns 0x00 (0000ms, 0518ms total)
T0784 005:626 JLINK_ReadMem (0x200010FC, 0x0004 Bytes, ...) -- Read from C cache (4 bytes @ 0x200010FC) - Data: 00 00 00 01  returns 0x00 (0001ms, 0519ms total)
T0784 005:627 JLINK_ReadMem (0x200010F4, 0x0004 Bytes, ...) -- Read from C cache (4 bytes @ 0x200010F4) - Data: E7 47 00 08  returns 0x00 (0000ms, 0519ms total)
T0784 005:627 JLINK_ReadMem (0xE000ED28, 0x0004 Bytes, ...) -- CPU_ReadMem(4 bytes @ 0xE000ED28) - Data: 00 00 00 00  returns 0x00 (0000ms, 0519ms total)
T0784 005:634 JLINK_ReadMem (0x40022000, 0x0004 Bytes, ...) -- CPU_ReadMem(4 bytes @ 0x40022000) - Data: 31 00 00 00  returns 0x00 (0001ms, 0520ms total)
T0784 005:635 JLINK_ReadMem (0x4002200C, 0x0004 Bytes, ...) -- CPU_ReadMem(4 bytes @ 0x4002200C) - Data: 00 00 00 00  returns 0x00 (0001ms, 0521ms total)
T0784 005:636 JLINK_ReadMem (0x40022010, 0x0004 Bytes, ...) -- CPU_ReadMem(4 bytes @ 0x40022010) - Data: 80 00 00 00  returns 0x00 (0001ms, 0522ms total)
T0784 005:637 JLINK_ReadMem (0x4002201C, 0x0004 Bytes, ...) -- CPU_ReadMem(4 bytes @ 0x4002201C) - Data: 00 FF FF FF  returns 0x00 (0001ms, 0523ms total)
T0784 005:638 JLINK_ReadMem (0x40022020, 0x0004 Bytes, ...) -- CPU_ReadMem(4 bytes @ 0x40022020) - Data: FF FF FF FF  returns 0x00 (0000ms, 0523ms total)
T0784 005:643 JLINK_ReadMem (0x40012C00, 0x0010 Bytes, ...) -- CPU_ReadMem(16 bytes @ 0x40012C00) - Data: 01 01 00 00 20 00 00 00 00 00 00 00 01 00 00 00  returns 0x00 (0001ms, 0524ms total)
T0784 005:644 JLINK_ReadMem (0x40012C10, 0x0004 Bytes, ...) -- CPU_ReadMem(4 bytes @ 0x40012C10) - Data: 1F 00 00 00  returns 0x00 (0001ms, 0525ms total)
T0784 005:645 JLINK_ReadMem (0x40012C18, 0x0034 Bytes, ...) -- CPU_ReadMem(52 bytes @ 0x40012C18) - Data: 00 00 00 00 00 00 00 00 00 00 00 00 00 00 00 00 ...  returns 0x00 (0001ms, 0526ms total)
T0784 005:646 JLINK_ReadMem (0x40012C4C, 0x0004 Bytes, ...) -- CPU_ReadMem(4 bytes @ 0x40012C4C) - Data: 01 01 00 00  returns 0x00 (0001ms, 0527ms total)
T0784 005:649 JLINK_ReadMem (0x40010000, 0x0004 Bytes, ...) -- CPU_ReadMem(4 bytes @ 0x40010000) - Data: 00 00 00 00  returns 0x00 (0001ms, 0528ms total)
T0784 005:650 JLINK_ReadMem (0x40010008, 0x0010 Bytes, ...) -- CPU_ReadMem(16 bytes @ 0x40010008) - Data: 00 00 00 00 00 00 00 00 00 00 00 00 00 00 00 00  returns 0x00 (0001ms, 0529ms total)
T0784 005:651 JLINK_ReadMem (0x40010018, 0x0004 Bytes, ...) -- CPU_ReadMem(4 bytes @ 0x40010018) - Data: 00 00 00 00  returns 0x00 (0000ms, 0529ms total)
T0784 005:652 JLINK_ReadMem (0x40007000, 0x0004 Bytes, ...) -- CPU_ReadMem(4 bytes @ 0x40007000) - Data: 00 00 00 00  returns 0x00 (0001ms, 0530ms total)
T0784 005:653 JLINK_ReadMem (0x40007004, 0x0004 Bytes, ...) -- CPU_ReadMem(4 bytes @ 0x40007004) - Data: 08 00 00 00  returns 0x00 (0001ms, 0531ms total)
T0784 005:654 JLINK_ReadMem (0x40021000, 0x0034 Bytes, ...) -- CPU_ReadMem(52 bytes @ 0x40021000) - Data: 83 57 00 00 0F 00 00 00 00 00 00 00 00 00 00 00 ...  returns 0x00 (0001ms, 0532ms total)
T0784 005:655 JLINK_ReadMem (0x40021034, 0x0004 Bytes, ...) -- CPU_ReadMem(4 bytes @ 0x40021034) - Data: 87 75 03 89  returns 0x00 (0001ms, 0533ms total)
T0784 005:675 JLINK_ReadMem (0x0800157C, 0x003C Bytes, ...) -- CPU_ReadMem(128 bytes @ 0x08001540) -- Updating C cache (128 bytes @ 0x08001540) -- Read from C cache (60 bytes @ 0x0800157C) - Data: 05 48 00 F0 8A FA 20 68 04 48 00 F0 D1 FA 10 BD ...  returns 0x00 (0002ms, 0535ms total)
T12D4 012:848 JLINK_Step() -- Read from C cache (2 bytes @ 0x0800157C) -- CPU_ReadMem(4 bytes @ 0xE000ED18) -- CPU_WriteMem(4 bytes @ 0xE000ED18) -- CPU_ReadMem(4 bytes @ 0xE000ED18) -- CPU_WriteMem(4 bytes @ 0xE000ED18) -- CPU_ReadMem(4 bytes @ 0xE0001004) -- Read from C cache (4 bytes @ 0x08001594) -- Simulated  returns 0x00 (0004ms, 0539ms total)
T12D4 012:852 JLINK_ReadReg(R15 (PC))  returns 0x0800157E (0000ms, 0539ms total)
T12D4 012:852 JLINK_ReadReg(XPSR)  returns 0x61000019 (0000ms, 0539ms total)
T12D4 012:852 JLINK_SetBPEx(Addr = 0x0800385A, Type = 0xFFFFFFF2)  returns 0x00000003 (0000ms, 0539ms total)
T12D4 012:852 JLINK_SetBPEx(Addr = 0x0800157C, Type = 0xFFFFFFF2)  returns 0x00000004 (0000ms, 0539ms total)
T12D4 012:852 JLINK_Go() -- CPU_WriteMem(4 bytes @ 0xE0002000) -- CPU_WriteMem(4 bytes @ 0xE0002000) -- CPU_ReadMem(4 bytes @ 0xE0001000) -- CPU_WriteMem(4 bytes @ 0xE0001000) -- CPU_WriteMem(4 bytes @ 0xE0001004) (0005ms, 0544ms total)
T12D4 012:958 JLINK_IsHalted()  returns TRUE (0003ms, 0547ms total)
T12D4 012:961 JLINK_Halt()  returns 0x00 (0001ms, 0545ms total)
T12D4 012:962 JLINK_IsHalted()  returns TRUE (0000ms, 0545ms total)
T12D4 012:962 JLINK_IsHalted()  returns TRUE (0000ms, 0545ms total)
T12D4 012:962 JLINK_IsHalted()  returns TRUE (0000ms, 0545ms total)
T12D4 012:962 JLINK_ReadReg(R15 (PC))  returns 0x0800157C (0000ms, 0545ms total)
T12D4 012:962 JLINK_ReadReg(XPSR)  returns 0x01000019 (0000ms, 0545ms total)
T12D4 012:962 JLINK_ClrBPEx(BPHandle = 0x00000003)  returns 0x00 (0000ms, 0545ms total)
T12D4 012:962 JLINK_ClrBPEx(BPHandle = 0x00000004)  returns 0x00 (0000ms, 0545ms total)
T12D4 012:962 JLINK_ReadMemU32(0xE000ED30, 0x0001 Items, ...) -- CPU_ReadMem(4 bytes @ 0xE000ED30) - Data: 03 00 00 00  returns 0x01 (0001ms, 0546ms total)
T12D4 012:963 JLINK_ReadMemU32(0xE0001028, 0x0001 Items, ...) -- CPU_ReadMem(4 bytes @ 0xE0001028) - Data: 00 00 00 00  returns 0x01 (0001ms, 0547ms total)
T12D4 012:964 JLINK_ReadMemU32(0xE0001038, 0x0001 Items, ...) -- CPU_ReadMem(4 bytes @ 0xE0001038) - Data: 00 00 00 00  returns 0x01 (0001ms, 0548ms total)
T12D4 012:965 JLINK_ReadReg(R0)  returns 0x00000002 (0000ms, 0548ms total)
T12D4 012:965 JLINK_ReadReg(R1)  returns 0x00000014 (0000ms, 0548ms total)
T12D4 012:965 JLINK_ReadReg(R2)  returns 0x41A00000 (0000ms, 0548ms total)
T12D4 012:965 JLINK_ReadReg(R3)  returns 0x00000000 (0000ms, 0548ms total)
T12D4 012:965 JLINK_ReadReg(R4)  returns 0x40020000 (0001ms, 0549ms total)
T12D4 012:966 JLINK_ReadReg(R5)  returns 0x00000000 (0000ms, 0549ms total)
T12D4 012:966 JLINK_ReadReg(R6)  returns 0x00000000 (0000ms, 0549ms total)
T12D4 012:966 JLINK_ReadReg(R7)  returns 0x00000000 (0000ms, 0549ms total)
T12D4 012:966 JLINK_ReadReg(R8)  returns 0xFFFFFFFF (0000ms, 0549ms total)
T12D4 012:966 JLINK_ReadReg(R9)  returns 0xFFFFFFFF (0000ms, 0549ms total)
T12D4 012:966 JLINK_ReadReg(R10)  returns 0x08005F2C (0000ms, 0549ms total)
T12D4 012:966 JLINK_ReadReg(R11)  returns 0x08005F2C (0000ms, 0549ms total)
T12D4 012:966 JLINK_ReadReg(R12)  returns 0x00003E4E (0000ms, 0549ms total)
T12D4 012:966 JLINK_ReadReg(R13 (SP))  returns 0x200010D0 (0000ms, 0549ms total)
T12D4 012:966 JLINK_ReadReg(R14)  returns 0x080043BF (0000ms, 0549ms total)
T12D4 012:966 JLINK_ReadReg(R15 (PC))  returns 0x0800157C (0000ms, 0549ms total)
T12D4 012:966 JLINK_ReadReg(XPSR)  returns 0x01000019 (0000ms, 0549ms total)
T12D4 012:966 JLINK_ReadReg(MSP)  returns 0x200010D0 (0000ms, 0549ms total)
T12D4 012:966 JLINK_ReadReg(PSP)  returns 0xFFFFFFFC (0000ms, 0549ms total)
T12D4 012:966 JLINK_ReadReg(CFBP)  returns 0x00000000 (0000ms, 0549ms total)
T0784 012:967 JLINK_ReadMem (0x200010D4, 0x0004 Bytes, ...) -- CPU_ReadMem(64 bytes @ 0x200010C0) -- Updating C cache (64 bytes @ 0x200010C0) -- Read from C cache (4 bytes @ 0x200010D4) - Data: F9 FF FF FF  returns 0x00 (0001ms, 0550ms total)
T0784 012:968 JLINK_ReadMem (0x200010F0, 0x0004 Bytes, ...) -- Read from C cache (4 bytes @ 0x200010F0) - Data: 10 32 00 08  returns 0x00 (0000ms, 0550ms total)
T0784 012:968 JLINK_ReadMem (0x200010F4, 0x0004 Bytes, ...) -- Read from C cache (4 bytes @ 0x200010F4) - Data: 00 00 00 21  returns 0x00 (0000ms, 0550ms total)
T0784 012:968 JLINK_ReadMem (0x200010EC, 0x0004 Bytes, ...) -- Read from C cache (4 bytes @ 0x200010EC) - Data: C3 2D 00 08  returns 0x00 (0000ms, 0550ms total)
T0784 012:968 JLINK_ReadMem (0xE000ED28, 0x0004 Bytes, ...) -- CPU_ReadMem(4 bytes @ 0xE000ED28) - Data: 00 00 00 00  returns 0x00 (0001ms, 0551ms total)
T0784 012:969 JLINK_ReadMem (0x20001104, 0x0004 Bytes, ...) -- CPU_ReadMem(64 bytes @ 0x20001100) -- Updating C cache (64 bytes @ 0x20001100) -- Read from C cache (4 bytes @ 0x20001104) - Data: C3 2D 00 08  returns 0x00 (0002ms, 0553ms total)
T0784 012:971 JLINK_ReadMem (0x200010F8, 0x0004 Bytes, ...) -- Read from C cache (4 bytes @ 0x200010F8) - Data: 2C 5F 00 08  returns 0x00 (0000ms, 0553ms total)
T0784 012:971 JLINK_ReadMem (0x200010FC, 0x0004 Bytes, ...) -- Read from C cache (4 bytes @ 0x200010FC) - Data: B0 06 00 20  returns 0x00 (0000ms, 0553ms total)
T0784 012:971 JLINK_ReadMem (0x20001100, 0x0004 Bytes, ...) -- Read from C cache (4 bytes @ 0x20001100) - Data: 00 00 00 00  returns 0x00 (0000ms, 0553ms total)
T0784 012:987 JLINK_ReadMem (0x40022000, 0x0004 Bytes, ...) -- CPU_ReadMem(4 bytes @ 0x40022000) - Data: 31 00 00 00  returns 0x00 (0001ms, 0554ms total)
T0784 012:988 JLINK_ReadMem (0x4002200C, 0x0004 Bytes, ...) -- CPU_ReadMem(4 bytes @ 0x4002200C) - Data: 00 00 00 00  returns 0x00 (0001ms, 0555ms total)
T0784 012:989 JLINK_ReadMem (0x40022010, 0x0004 Bytes, ...) -- CPU_ReadMem(4 bytes @ 0x40022010) - Data: 80 00 00 00  returns 0x00 (0000ms, 0555ms total)
T0784 012:989 JLINK_ReadMem (0x4002201C, 0x0004 Bytes, ...) -- CPU_ReadMem(4 bytes @ 0x4002201C) - Data: 00 FF FF FF  returns 0x00 (0001ms, 0556ms total)
T0784 012:990 JLINK_ReadMem (0x40022020, 0x0004 Bytes, ...) -- CPU_ReadMem(4 bytes @ 0x40022020) - Data: FF FF FF FF  returns 0x00 (0000ms, 0556ms total)
T0784 012:991 JLINK_ReadMem (0x40012C00, 0x0010 Bytes, ...) -- CPU_ReadMem(16 bytes @ 0x40012C00) - Data: 01 01 00 00 20 00 00 00 00 00 00 00 01 00 00 00  returns 0x00 (0001ms, 0557ms total)
T0784 012:992 JLINK_ReadMem (0x40012C10, 0x0004 Bytes, ...) -- CPU_ReadMem(4 bytes @ 0x40012C10) - Data: 1F 00 00 00  returns 0x00 (0001ms, 0558ms total)
T0784 012:993 JLINK_ReadMem (0x40012C18, 0x0034 Bytes, ...) -- CPU_ReadMem(52 bytes @ 0x40012C18) - Data: 00 00 00 00 00 00 00 00 00 00 00 00 01 00 00 00 ...  returns 0x00 (0002ms, 0560ms total)
T0784 012:995 JLINK_ReadMem (0x40012C4C, 0x0004 Bytes, ...) -- CPU_ReadMem(4 bytes @ 0x40012C4C) - Data: 01 01 00 00  returns 0x00 (0000ms, 0560ms total)
T0784 012:996 JLINK_ReadMem (0x40010000, 0x0004 Bytes, ...) -- CPU_ReadMem(4 bytes @ 0x40010000) - Data: 00 00 00 00  returns 0x00 (0001ms, 0561ms total)
T0784 012:997 JLINK_ReadMem (0x40010008, 0x0010 Bytes, ...) -- CPU_ReadMem(16 bytes @ 0x40010008) - Data: 00 00 00 00 00 00 00 00 00 00 00 00 00 00 00 00  returns 0x00 (0001ms, 0562ms total)
T0784 012:998 JLINK_ReadMem (0x40010018, 0x0004 Bytes, ...) -- CPU_ReadMem(4 bytes @ 0x40010018) - Data: 00 00 00 00  returns 0x00 (0000ms, 0562ms total)
T0784 012:999 JLINK_ReadMem (0x40007000, 0x0004 Bytes, ...) -- CPU_ReadMem(4 bytes @ 0x40007000) - Data: 00 00 00 00  returns 0x00 (0001ms, 0563ms total)
T0784 013:000 JLINK_ReadMem (0x40007004, 0x0004 Bytes, ...) -- CPU_ReadMem(4 bytes @ 0x40007004) - Data: 08 00 00 00  returns 0x00 (0000ms, 0563ms total)
T0784 013:001 JLINK_ReadMem (0x40021000, 0x0034 Bytes, ...) -- CPU_ReadMem(52 bytes @ 0x40021000) - Data: 83 57 00 00 0F 00 00 00 00 00 00 00 00 00 00 00 ...  returns 0x00 (0001ms, 0564ms total)
T0784 013:002 JLINK_ReadMem (0x40021034, 0x0004 Bytes, ...) -- CPU_ReadMem(4 bytes @ 0x40021034) - Data: 87 75 03 89  returns 0x00 (0000ms, 0564ms total)
T12D4 013:471 JLINK_Step() -- CPU_ReadMem(64 bytes @ 0x08001540) -- Updating C cache (64 bytes @ 0x08001540) -- Read from C cache (2 bytes @ 0x0800157C) -- CPU_ReadMem(4 bytes @ 0xE0001004) -- CPU_ReadMem(64 bytes @ 0x08001580) -- Updating C cache (64 bytes @ 0x08001580) -- Read from C cache (4 bytes @ 0x08001594) -- Simulated  returns 0x00 (0004ms, 0568ms total)
T12D4 013:475 JLINK_ReadReg(R15 (PC))  returns 0x0800157E (0000ms, 0568ms total)
T12D4 013:475 JLINK_ReadReg(XPSR)  returns 0x01000019 (0000ms, 0568ms total)
T12D4 013:475 JLINK_SetBPEx(Addr = 0x0800385A, Type = 0xFFFFFFF2)  returns 0x00000005 (0000ms, 0568ms total)
T12D4 013:475 JLINK_SetBPEx(Addr = 0x0800157C, Type = 0xFFFFFFF2)  returns 0x00000006 (0000ms, 0568ms total)
T12D4 013:475 JLINK_Go() -- CPU_WriteMem(4 bytes @ 0xE0002000) -- CPU_WriteMem(4 bytes @ 0xE0002000) -- CPU_ReadMem(4 bytes @ 0xE0001000) -- CPU_WriteMem(4 bytes @ 0xE0001000) -- CPU_WriteMem(4 bytes @ 0xE0001004) (0006ms, 0574ms total)
T12D4 013:581 JLINK_IsHalted()  returns TRUE (0003ms, 0577ms total)
T12D4 013:584 JLINK_Halt()  returns 0x00 (0000ms, 0574ms total)
T12D4 013:584 JLINK_IsHalted()  returns TRUE (0000ms, 0574ms total)
T12D4 013:584 JLINK_IsHalted()  returns TRUE (0000ms, 0574ms total)
T12D4 013:584 JLINK_IsHalted()  returns TRUE (0000ms, 0574ms total)
T12D4 013:584 JLINK_ReadReg(R15 (PC))  returns 0x0800157C (0000ms, 0574ms total)
T12D4 013:584 JLINK_ReadReg(XPSR)  returns 0x21000019 (0000ms, 0574ms total)
T12D4 013:584 JLINK_ClrBPEx(BPHandle = 0x00000005)  returns 0x00 (0000ms, 0574ms total)
T12D4 013:584 JLINK_ClrBPEx(BPHandle = 0x00000006)  returns 0x00 (0000ms, 0574ms total)
T12D4 013:585 JLINK_ReadMemU32(0xE000ED30, 0x0001 Items, ...) -- CPU_ReadMem(4 bytes @ 0xE000ED30) - Data: 03 00 00 00  returns 0x01 (0000ms, 0575ms total)
T12D4 013:585 JLINK_ReadMemU32(0xE0001028, 0x0001 Items, ...) -- CPU_ReadMem(4 bytes @ 0xE0001028) - Data: 00 00 00 00  returns 0x01 (0001ms, 0576ms total)
T12D4 013:586 JLINK_ReadMemU32(0xE0001038, 0x0001 Items, ...) -- CPU_ReadMem(4 bytes @ 0xE0001038) - Data: 00 00 00 00  returns 0x01 (0001ms, 0577ms total)
T12D4 013:587 JLINK_ReadReg(R0)  returns 0x00000004 (0000ms, 0577ms total)
T12D4 013:587 JLINK_ReadReg(R1)  returns 0x00000014 (0000ms, 0577ms total)
T12D4 013:587 JLINK_ReadReg(R2)  returns 0x41A00000 (0000ms, 0577ms total)
T12D4 013:587 JLINK_ReadReg(R3)  returns 0x00000002 (0000ms, 0577ms total)
T12D4 013:587 JLINK_ReadReg(R4)  returns 0x40020000 (0000ms, 0577ms total)
T12D4 013:587 JLINK_ReadReg(R5)  returns 0x200006B0 (0000ms, 0577ms total)
T12D4 013:587 JLINK_ReadReg(R6)  returns 0x00000000 (0000ms, 0577ms total)
T12D4 013:587 JLINK_ReadReg(R7)  returns 0x00000000 (0000ms, 0577ms total)
T12D4 013:587 JLINK_ReadReg(R8)  returns 0xFFFFFFFF (0000ms, 0577ms total)
T12D4 013:587 JLINK_ReadReg(R9)  returns 0xFFFFFFFF (0000ms, 0577ms total)
T12D4 013:587 JLINK_ReadReg(R10)  returns 0x08005F2C (0000ms, 0577ms total)
T12D4 013:587 JLINK_ReadReg(R11)  returns 0x08005F2C (0000ms, 0577ms total)
T12D4 013:587 JLINK_ReadReg(R12)  returns 0x00003162 (0000ms, 0577ms total)
T12D4 013:587 JLINK_ReadReg(R13 (SP))  returns 0x200010B8 (0000ms, 0577ms total)
T12D4 013:587 JLINK_ReadReg(R14)  returns 0x080043BF (0000ms, 0577ms total)
T12D4 013:587 JLINK_ReadReg(R15 (PC))  returns 0x0800157C (0000ms, 0577ms total)
T12D4 013:587 JLINK_ReadReg(XPSR)  returns 0x21000019 (0000ms, 0577ms total)
T12D4 013:587 JLINK_ReadReg(MSP)  returns 0x200010B8 (0000ms, 0577ms total)
T12D4 013:587 JLINK_ReadReg(PSP)  returns 0xFFFFFFFC (0000ms, 0577ms total)
T12D4 013:587 JLINK_ReadReg(CFBP)  returns 0x00000000 (0000ms, 0577ms total)
T0784 013:588 JLINK_ReadMem (0x200010BC, 0x0004 Bytes, ...) -- CPU_ReadMem(64 bytes @ 0x20001080) -- Updating C cache (64 bytes @ 0x20001080) -- Read from C cache (4 bytes @ 0x200010BC) - Data: F9 FF FF FF  returns 0x00 (0001ms, 0578ms total)
T0784 013:589 JLINK_ReadMem (0x200010D8, 0x0004 Bytes, ...) -- CPU_ReadMem(64 bytes @ 0x200010C0) -- Updating C cache (64 bytes @ 0x200010C0) -- Read from C cache (4 bytes @ 0x200010D8) - Data: E2 45 00 08  returns 0x00 (0001ms, 0579ms total)
T0784 013:590 JLINK_ReadMem (0x200010DC, 0x0004 Bytes, ...) -- Read from C cache (4 bytes @ 0x200010DC) - Data: 00 00 00 41  returns 0x00 (0000ms, 0579ms total)
T0784 013:590 JLINK_ReadMem (0x200010D4, 0x0004 Bytes, ...) -- Read from C cache (4 bytes @ 0x200010D4) - Data: 0F 47 00 08  returns 0x00 (0000ms, 0579ms total)
T0784 013:590 JLINK_ReadMem (0xE000ED28, 0x0004 Bytes, ...) -- CPU_ReadMem(4 bytes @ 0xE000ED28) - Data: 00 00 00 00  returns 0x00 (0002ms, 0581ms total)
T0784 013:592 JLINK_ReadMem (0x200010F4, 0x0004 Bytes, ...) -- Read from C cache (4 bytes @ 0x200010F4) - Data: 0F 47 00 08  returns 0x00 (0000ms, 0581ms total)
T0784 013:592 JLINK_ReadMem (0x200010E4, 0x0004 Bytes, ...) -- Read from C cache (4 bytes @ 0x200010E4) - Data: 18 02 00 20  returns 0x00 (0000ms, 0581ms total)
T0784 013:592 JLINK_ReadMem (0x200010E8, 0x0004 Bytes, ...) -- Read from C cache (4 bytes @ 0x200010E8) - Data: B0 06 00 20  returns 0x00 (0000ms, 0581ms total)
T0784 013:592 JLINK_ReadMem (0x200010EC, 0x0004 Bytes, ...) -- Read from C cache (4 bytes @ 0x200010EC) - Data: 00 00 00 00  returns 0x00 (0000ms, 0581ms total)
T0784 013:592 JLINK_ReadMem (0x200010F0, 0x0004 Bytes, ...) -- Read from C cache (4 bytes @ 0x200010F0) - Data: 00 00 00 00  returns 0x00 (0000ms, 0581ms total)
T0784 013:592 JLINK_ReadMem (0x200010FC, 0x0004 Bytes, ...) -- Read from C cache (4 bytes @ 0x200010FC) - Data: EF 47 00 08  returns 0x00 (0000ms, 0581ms total)
T0784 013:592 JLINK_ReadMem (0x200010F8, 0x0004 Bytes, ...) -- Read from C cache (4 bytes @ 0x200010F8) - Data: 18 02 00 20  returns 0x00 (0000ms, 0581ms total)
T0784 013:592 JLINK_ReadMem (0x20001104, 0x0004 Bytes, ...) -- CPU_ReadMem(64 bytes @ 0x20001100) -- Updating C cache (64 bytes @ 0x20001100) -- Read from C cache (4 bytes @ 0x20001104) - Data: BF 2D 00 08  returns 0x00 (0002ms, 0583ms total)
T0784 013:594 JLINK_ReadMem (0x20001100, 0x0004 Bytes, ...) -- Read from C cache (4 bytes @ 0x20001100) - Data: 2C 5F 00 08  returns 0x00 (0000ms, 0583ms total)
T0784 013:605 JLINK_ReadMem (0x40022000, 0x0004 Bytes, ...) -- CPU_ReadMem(4 bytes @ 0x40022000) - Data: 31 00 00 00  returns 0x00 (0001ms, 0584ms total)
T0784 013:606 JLINK_ReadMem (0x4002200C, 0x0004 Bytes, ...) -- CPU_ReadMem(4 bytes @ 0x4002200C) - Data: 00 00 00 00  returns 0x00 (0001ms, 0585ms total)
T0784 013:607 JLINK_ReadMem (0x40022010, 0x0004 Bytes, ...) -- CPU_ReadMem(4 bytes @ 0x40022010) - Data: 80 00 00 00  returns 0x00 (0000ms, 0585ms total)
T0784 013:607 JLINK_ReadMem (0x4002201C, 0x0004 Bytes, ...) -- CPU_ReadMem(4 bytes @ 0x4002201C) - Data: 00 FF FF FF  returns 0x00 (0001ms, 0586ms total)
T0784 013:608 JLINK_ReadMem (0x40022020, 0x0004 Bytes, ...) -- CPU_ReadMem(4 bytes @ 0x40022020) - Data: FF FF FF FF  returns 0x00 (0001ms, 0587ms total)
T0784 013:609 JLINK_ReadMem (0x40012C00, 0x0010 Bytes, ...) -- CPU_ReadMem(16 bytes @ 0x40012C00) - Data: 01 01 00 00 20 00 00 00 00 00 00 00 01 00 00 00  returns 0x00 (0001ms, 0588ms total)
T0784 013:610 JLINK_ReadMem (0x40012C10, 0x0004 Bytes, ...) -- CPU_ReadMem(4 bytes @ 0x40012C10) - Data: 1F 00 00 00  returns 0x00 (0000ms, 0588ms total)
T0784 013:610 JLINK_ReadMem (0x40012C18, 0x0034 Bytes, ...) -- CPU_ReadMem(52 bytes @ 0x40012C18) - Data: 00 00 00 00 00 00 00 00 00 00 00 00 00 00 00 00 ...  returns 0x00 (0002ms, 0590ms total)
T0784 013:612 JLINK_ReadMem (0x40012C4C, 0x0004 Bytes, ...) -- CPU_ReadMem(4 bytes @ 0x40012C4C) - Data: 01 01 00 00  returns 0x00 (0000ms, 0590ms total)
T0784 013:613 JLINK_ReadMem (0x40010000, 0x0004 Bytes, ...) -- CPU_ReadMem(4 bytes @ 0x40010000) - Data: 00 00 00 00  returns 0x00 (0000ms, 0590ms total)
T0784 013:613 JLINK_ReadMem (0x40010008, 0x0010 Bytes, ...) -- CPU_ReadMem(16 bytes @ 0x40010008) - Data: 00 00 00 00 00 00 00 00 00 00 00 00 00 00 00 00  returns 0x00 (0001ms, 0591ms total)
T0784 013:614 JLINK_ReadMem (0x40010018, 0x0004 Bytes, ...) -- CPU_ReadMem(4 bytes @ 0x40010018) - Data: 00 00 00 00  returns 0x00 (0001ms, 0592ms total)
T0784 013:615 JLINK_ReadMem (0x40007000, 0x0004 Bytes, ...) -- CPU_ReadMem(4 bytes @ 0x40007000) - Data: 00 00 00 00  returns 0x00 (0001ms, 0593ms total)
T0784 013:616 JLINK_ReadMem (0x40007004, 0x0004 Bytes, ...) -- CPU_ReadMem(4 bytes @ 0x40007004) - Data: 08 00 00 00  returns 0x00 (0000ms, 0593ms total)
T0784 013:617 JLINK_ReadMem (0x40021000, 0x0034 Bytes, ...) -- CPU_ReadMem(52 bytes @ 0x40021000) - Data: 83 57 00 00 0F 00 00 00 00 00 00 00 00 00 00 00 ...  returns 0x00 (0001ms, 0594ms total)
T0784 013:618 JLINK_ReadMem (0x40021034, 0x0004 Bytes, ...) -- CPU_ReadMem(4 bytes @ 0x40021034) - Data: 87 75 03 89  returns 0x00 (0001ms, 0595ms total)
T12D4 014:134 JLINK_Step() -- CPU_ReadMem(64 bytes @ 0x08001540) -- Updating C cache (64 bytes @ 0x08001540) -- Read from C cache (2 bytes @ 0x0800157C) -- CPU_ReadMem(4 bytes @ 0xE0001004) -- CPU_ReadMem(64 bytes @ 0x08001580) -- Updating C cache (64 bytes @ 0x08001580) -- Read from C cache (4 bytes @ 0x08001594) -- Simulated  returns 0x00 (0004ms, 0599ms total)
T12D4 014:138 JLINK_ReadReg(R15 (PC))  returns 0x0800157E (0000ms, 0599ms total)
T12D4 014:138 JLINK_ReadReg(XPSR)  returns 0x21000019 (0000ms, 0599ms total)
T12D4 014:138 JLINK_SetBPEx(Addr = 0x0800385A, Type = 0xFFFFFFF2)  returns 0x00000007 (0000ms, 0599ms total)
T12D4 014:138 JLINK_SetBPEx(Addr = 0x0800157C, Type = 0xFFFFFFF2)  returns 0x00000008 (0000ms, 0599ms total)
T12D4 014:138 JLINK_Go() -- CPU_WriteMem(4 bytes @ 0xE0002000) -- CPU_WriteMem(4 bytes @ 0xE0002000) -- CPU_ReadMem(4 bytes @ 0xE0001000) -- CPU_WriteMem(4 bytes @ 0xE0001000) -- CPU_WriteMem(4 bytes @ 0xE0001004) (0006ms, 0605ms total)
T12D4 014:245 JLINK_IsHalted()  returns TRUE (0003ms, 0608ms total)
T12D4 014:248 JLINK_Halt()  returns 0x00 (0000ms, 0605ms total)
T12D4 014:248 JLINK_IsHalted()  returns TRUE (0000ms, 0605ms total)
T12D4 014:248 JLINK_IsHalted()  returns TRUE (0000ms, 0605ms total)
T12D4 014:248 JLINK_IsHalted()  returns TRUE (0000ms, 0605ms total)
T12D4 014:248 JLINK_ReadReg(R15 (PC))  returns 0x0800157C (0000ms, 0605ms total)
T12D4 014:248 JLINK_ReadReg(XPSR)  returns 0x21000019 (0000ms, 0605ms total)
T12D4 014:248 JLINK_ClrBPEx(BPHandle = 0x00000007)  returns 0x00 (0001ms, 0606ms total)
T12D4 014:249 JLINK_ClrBPEx(BPHandle = 0x00000008)  returns 0x00 (0000ms, 0606ms total)
T12D4 014:249 JLINK_ReadMemU32(0xE000ED30, 0x0001 Items, ...) -- CPU_ReadMem(4 bytes @ 0xE000ED30) - Data: 03 00 00 00  returns 0x01 (0001ms, 0607ms total)
T12D4 014:250 JLINK_ReadMemU32(0xE0001028, 0x0001 Items, ...) -- CPU_ReadMem(4 bytes @ 0xE0001028) - Data: 00 00 00 00  returns 0x01 (0001ms, 0608ms total)
T12D4 014:251 JLINK_ReadMemU32(0xE0001038, 0x0001 Items, ...) -- CPU_ReadMem(4 bytes @ 0xE0001038) - Data: 00 00 00 00  returns 0x01 (0001ms, 0609ms total)
T12D4 014:252 JLINK_ReadReg(R0)  returns 0x00000007 (0000ms, 0609ms total)
T12D4 014:252 JLINK_ReadReg(R1)  returns 0x00000014 (0000ms, 0609ms total)
T12D4 014:252 JLINK_ReadReg(R2)  returns 0x41A00000 (0000ms, 0609ms total)
T12D4 014:252 JLINK_ReadReg(R3)  returns 0x00000004 (0000ms, 0609ms total)
T12D4 014:252 JLINK_ReadReg(R4)  returns 0x40020000 (0000ms, 0609ms total)
T12D4 014:252 JLINK_ReadReg(R5)  returns 0x00000005 (0000ms, 0609ms total)
T12D4 014:252 JLINK_ReadReg(R6)  returns 0x200003C0 (0000ms, 0609ms total)
T12D4 014:252 JLINK_ReadReg(R7)  returns 0x00000000 (0000ms, 0609ms total)
T12D4 014:252 JLINK_ReadReg(R8)  returns 0xFFFFFFFF (0000ms, 0609ms total)
T12D4 014:252 JLINK_ReadReg(R9)  returns 0xFFFFFFFF (0000ms, 0609ms total)
T12D4 014:252 JLINK_ReadReg(R10)  returns 0x08005F2C (0000ms, 0609ms total)
T12D4 014:252 JLINK_ReadReg(R11)  returns 0x08005F2C (0000ms, 0609ms total)
T12D4 014:252 JLINK_ReadReg(R12)  returns 0x00001862 (0000ms, 0609ms total)
T12D4 014:252 JLINK_ReadReg(R13 (SP))  returns 0x200010B0 (0000ms, 0609ms total)
T12D4 014:252 JLINK_ReadReg(R14)  returns 0x080043BF (0000ms, 0609ms total)
T12D4 014:252 JLINK_ReadReg(R15 (PC))  returns 0x0800157C (0001ms, 0610ms total)
T12D4 014:253 JLINK_ReadReg(XPSR)  returns 0x21000019 (0000ms, 0610ms total)
T12D4 014:253 JLINK_ReadReg(MSP)  returns 0x200010B0 (0000ms, 0610ms total)
T12D4 014:253 JLINK_ReadReg(PSP)  returns 0xFFFFFFFC (0000ms, 0610ms total)
T12D4 014:253 JLINK_ReadReg(CFBP)  returns 0x00000000 (0000ms, 0610ms total)
T0784 014:253 JLINK_ReadMem (0x200010B4, 0x0004 Bytes, ...) -- CPU_ReadMem(64 bytes @ 0x20001080) -- Updating C cache (64 bytes @ 0x20001080) -- Read from C cache (4 bytes @ 0x200010B4) - Data: F9 FF FF FF  returns 0x00 (0002ms, 0612ms total)
T0784 014:255 JLINK_ReadMem (0x200010D0, 0x0004 Bytes, ...) -- CPU_ReadMem(64 bytes @ 0x200010C0) -- Updating C cache (64 bytes @ 0x200010C0) -- Read from C cache (4 bytes @ 0x200010D0) - Data: 14 54 00 08  returns 0x00 (0001ms, 0613ms total)
T0784 014:256 JLINK_ReadMem (0x200010D4, 0x0004 Bytes, ...) -- Read from C cache (4 bytes @ 0x200010D4) - Data: 00 00 00 21  returns 0x00 (0000ms, 0613ms total)
T0784 014:256 JLINK_ReadMem (0x200010CC, 0x0004 Bytes, ...) -- Read from C cache (4 bytes @ 0x200010CC) - Data: 05 46 00 08  returns 0x00 (0000ms, 0613ms total)
T0784 014:256 JLINK_ReadMem (0xE000ED28, 0x0004 Bytes, ...) -- CPU_ReadMem(4 bytes @ 0xE000ED28) - Data: 00 00 00 00  returns 0x00 (0001ms, 0614ms total)
T0784 014:257 JLINK_ReadMem (0x200010D8, 0x0004 Bytes, ...) -- Read from C cache (4 bytes @ 0x200010D8) - Data: A4 03 00 20  returns 0x00 (0000ms, 0614ms total)
T0784 014:257 JLINK_ReadMem (0x200010DC, 0x0004 Bytes, ...) -- Read from C cache (4 bytes @ 0x200010DC) - Data: 25 00 00 00  returns 0x00 (0000ms, 0614ms total)
T0784 014:288 JLINK_ReadMem (0x40022000, 0x0004 Bytes, ...) -- CPU_ReadMem(4 bytes @ 0x40022000) - Data: 31 00 00 00  returns 0x00 (0001ms, 0615ms total)
T0784 014:289 JLINK_ReadMem (0x4002200C, 0x0004 Bytes, ...) -- CPU_ReadMem(4 bytes @ 0x4002200C) - Data: 00 00 00 00  returns 0x00 (0001ms, 0616ms total)
T0784 014:290 JLINK_ReadMem (0x40022010, 0x0004 Bytes, ...) -- CPU_ReadMem(4 bytes @ 0x40022010) - Data: 80 00 00 00  returns 0x00 (0001ms, 0617ms total)
T0784 014:291 JLINK_ReadMem (0x4002201C, 0x0004 Bytes, ...) -- CPU_ReadMem(4 bytes @ 0x4002201C) - Data: 00 FF FF FF  returns 0x00 (0001ms, 0618ms total)
T0784 014:292 JLINK_ReadMem (0x40022020, 0x0004 Bytes, ...) -- CPU_ReadMem(4 bytes @ 0x40022020) - Data: FF FF FF FF  returns 0x00 (0001ms, 0619ms total)
T0784 014:293 JLINK_ReadMem (0x40012C00, 0x0010 Bytes, ...) -- CPU_ReadMem(16 bytes @ 0x40012C00) - Data: 01 01 00 00 20 00 00 00 00 00 00 00 01 00 00 00  returns 0x00 (0001ms, 0620ms total)
T0784 014:294 JLINK_ReadMem (0x40012C10, 0x0004 Bytes, ...) -- CPU_ReadMem(4 bytes @ 0x40012C10) - Data: 1F 00 00 00  returns 0x00 (0001ms, 0621ms total)
T0784 014:295 JLINK_ReadMem (0x40012C18, 0x0034 Bytes, ...) -- CPU_ReadMem(52 bytes @ 0x40012C18) - Data: 00 00 00 00 00 00 00 00 00 00 00 00 00 00 00 00 ...  returns 0x00 (0002ms, 0623ms total)
T0784 014:297 JLINK_ReadMem (0x40012C4C, 0x0004 Bytes, ...) -- CPU_ReadMem(4 bytes @ 0x40012C4C) - Data: 01 01 00 00  returns 0x00 (0000ms, 0623ms total)
T0784 014:297 JLINK_ReadMem (0x40010000, 0x0004 Bytes, ...) -- CPU_ReadMem(4 bytes @ 0x40010000) - Data: 00 00 00 00  returns 0x00 (0002ms, 0625ms total)
T0784 014:299 JLINK_ReadMem (0x40010008, 0x0010 Bytes, ...) -- CPU_ReadMem(16 bytes @ 0x40010008) - Data: 00 00 00 00 00 00 00 00 00 00 00 00 00 00 00 00  returns 0x00 (0000ms, 0625ms total)
T0784 014:299 JLINK_ReadMem (0x40010018, 0x0004 Bytes, ...) -- CPU_ReadMem(4 bytes @ 0x40010018) - Data: 00 00 00 00  returns 0x00 (0001ms, 0626ms total)
T0784 014:300 JLINK_ReadMem (0x40007000, 0x0004 Bytes, ...) -- CPU_ReadMem(4 bytes @ 0x40007000) - Data: 00 00 00 00  returns 0x00 (0001ms, 0627ms total)
T0784 014:301 JLINK_ReadMem (0x40007004, 0x0004 Bytes, ...) -- CPU_ReadMem(4 bytes @ 0x40007004) - Data: 08 00 00 00  returns 0x00 (0000ms, 0627ms total)
T0784 014:302 JLINK_ReadMem (0x40021000, 0x0034 Bytes, ...) -- CPU_ReadMem(52 bytes @ 0x40021000) - Data: 83 57 00 00 0F 00 00 00 00 00 00 00 00 00 00 00 ...  returns 0x00 (0001ms, 0628ms total)
T0784 014:303 JLINK_ReadMem (0x40021034, 0x0004 Bytes, ...) -- CPU_ReadMem(4 bytes @ 0x40021034) - Data: 87 75 03 89  returns 0x00 (0001ms, 0629ms total)
T12D4 014:712 JLINK_Step() -- CPU_ReadMem(64 bytes @ 0x08001540) -- Updating C cache (64 bytes @ 0x08001540) -- Read from C cache (2 bytes @ 0x0800157C) -- CPU_ReadMem(4 bytes @ 0xE0001004) -- CPU_ReadMem(64 bytes @ 0x08001580) -- Updating C cache (64 bytes @ 0x08001580) -- Read from C cache (4 bytes @ 0x08001594) -- Simulated  returns 0x00 (0004ms, 0633ms total)
T12D4 014:716 JLINK_ReadReg(R15 (PC))  returns 0x0800157E (0000ms, 0633ms total)
T12D4 014:716 JLINK_ReadReg(XPSR)  returns 0x21000019 (0000ms, 0633ms total)
T12D4 014:716 JLINK_SetBPEx(Addr = 0x0800385A, Type = 0xFFFFFFF2)  returns 0x00000009 (0000ms, 0633ms total)
T12D4 014:716 JLINK_SetBPEx(Addr = 0x0800157C, Type = 0xFFFFFFF2)  returns 0x0000000A (0000ms, 0633ms total)
T12D4 014:716 JLINK_Go() -- CPU_WriteMem(4 bytes @ 0xE0002000) -- CPU_WriteMem(4 bytes @ 0xE0002000) -- CPU_ReadMem(4 bytes @ 0xE0001000) -- CPU_WriteMem(4 bytes @ 0xE0001000) -- CPU_WriteMem(4 bytes @ 0xE0001004) (0004ms, 0637ms total)
T12D4 014:821 JLINK_IsHalted()  returns TRUE (0004ms, 0641ms total)
T12D4 014:825 JLINK_Halt()  returns 0x00 (0000ms, 0637ms total)
T12D4 014:825 JLINK_IsHalted()  returns TRUE (0000ms, 0637ms total)
T12D4 014:825 JLINK_IsHalted()  returns TRUE (0000ms, 0637ms total)
T12D4 014:825 JLINK_IsHalted()  returns TRUE (0000ms, 0637ms total)
T12D4 014:825 JLINK_ReadReg(R15 (PC))  returns 0x0800157C (0000ms, 0637ms total)
T12D4 014:825 JLINK_ReadReg(XPSR)  returns 0x21000019 (0000ms, 0637ms total)
T12D4 014:825 JLINK_ClrBPEx(BPHandle = 0x00000009)  returns 0x00 (0000ms, 0637ms total)
T12D4 014:825 JLINK_ClrBPEx(BPHandle = 0x0000000A)  returns 0x00 (0000ms, 0637ms total)
T12D4 014:825 JLINK_ReadMemU32(0xE000ED30, 0x0001 Items, ...) -- CPU_ReadMem(4 bytes @ 0xE000ED30) - Data: 03 00 00 00  returns 0x01 (0001ms, 0638ms total)
T12D4 014:826 JLINK_ReadMemU32(0xE0001028, 0x0001 Items, ...) -- CPU_ReadMem(4 bytes @ 0xE0001028) - Data: 00 00 00 00  returns 0x01 (0001ms, 0639ms total)
T12D4 014:827 JLINK_ReadMemU32(0xE0001038, 0x0001 Items, ...) -- CPU_ReadMem(4 bytes @ 0xE0001038) - Data: 00 00 00 00  returns 0x01 (0000ms, 0639ms total)
T12D4 014:828 JLINK_ReadReg(R0)  returns 0x0000000B (0000ms, 0639ms total)
T12D4 014:828 JLINK_ReadReg(R1)  returns 0x00000014 (0000ms, 0639ms total)
T12D4 014:828 JLINK_ReadReg(R2)  returns 0x41A00000 (0000ms, 0639ms total)
T12D4 014:828 JLINK_ReadReg(R3)  returns 0x00000007 (0000ms, 0639ms total)
T12D4 014:828 JLINK_ReadReg(R4)  returns 0x40020000 (0000ms, 0639ms total)
T12D4 014:828 JLINK_ReadReg(R5)  returns 0x200006B0 (0000ms, 0639ms total)
T12D4 014:828 JLINK_ReadReg(R6)  returns 0x00000000 (0000ms, 0639ms total)
T12D4 014:828 JLINK_ReadReg(R7)  returns 0x00000000 (0000ms, 0639ms total)
T12D4 014:828 JLINK_ReadReg(R8)  returns 0xFFFFFFFF (0000ms, 0639ms total)
T12D4 014:828 JLINK_ReadReg(R9)  returns 0xFFFFFFFF (0000ms, 0639ms total)
T12D4 014:828 JLINK_ReadReg(R10)  returns 0x08005F2C (0000ms, 0639ms total)
T12D4 014:828 JLINK_ReadReg(R11)  returns 0x08005F2C (0000ms, 0639ms total)
T12D4 014:828 JLINK_ReadReg(R12)  returns 0x00002C2E (0000ms, 0639ms total)
